TC44C 456:054.089   SEGGER J-Link V6.92 Log File
TC44C 456:054.129   DLL Compiled: Dec 18 2020 13:12:28
TC44C 456:054.136   Logging started @ 2025-08-05 07:04
TC44C 456:054.141 - 551.789ms
TC44C 456:054.149 JLINK_SetWarnOutHandler(...)
TC44C 456:054.154 - 0.008ms
TC44C 456:054.160 JLINK_OpenEx(...)
TC44C 456:306.485   Firmware: J-Link V9 compiled May  7 2021 16:26:12
TC44C 456:306.647   Decompressing FW timestamp took 126 us
TC44C 456:317.803   Hardware: V9.40
TC44C 456:317.832   S/N: 59400616
TC44C 456:317.840   OEM: SEGGER
TC44C 456:317.851   Feature(s): RDI, FlashBP, FlashDL, JFlash, GDB
TC44C 456:320.107   TELNET listener socket opened on port 19021
TC44C 456:323.019   Device "CORTEX-M4" selected.
TC44C 456:324.062   WEBSRV Starting webserver
TC44C 456:324.151   WEBSRV Failed to put socket into listener state (port 19080)
TC44C 456:324.270   WEBSRV Webserver running on local port 19081
TC44C 456:324.281 - 270.123ms returns "O.K."
TC44C 456:324.295 JLINK_GetEmuCaps()
TC44C 456:324.301 - 0.009ms returns 0xB9FF7BBF
TC44C 456:324.309 JLINK_TIF_GetAvailable(...)
TC44C 456:324.758 - 0.477ms
TC44C 456:324.793 JLINK_SetErrorOutHandler(...)
TC44C 456:324.798 - 0.027ms
TC44C 456:325.520 JLINK_ExecCommand("ProjectFile = "E:\Work\2025\RTT\rt-thread-master\bsp\gd32\arm\gd32470i-eval\JLinkSettings.ini"", ...). 
TC44C 456:326.202   Device "CORTEX-M4" selected.
TC44C 456:326.642 - 1.128ms returns 0x00
TC44C 456:326.664 JLINK_ExecCommand("Device = GD32F470ZG", ...). 
TC44C 456:326.873   Device "CORTEX-M4" selected.
TC44C 456:327.251 - 0.585ms returns 0x00
TC44C 456:327.266 JLINK_GetHardwareVersion()
TC44C 456:327.272 - 0.008ms returns 94000
TC44C 456:327.279 JLINK_GetDLLVersion()
TC44C 456:327.284 - 0.007ms returns 69200
TC44C 456:327.290 JLINK_GetOEMString(...)
TC44C 456:327.296 JLINK_GetFirmwareString(...)
TC44C 456:327.302 - 0.007ms
TC44C 456:327.318 JLINK_GetDLLVersion()
TC44C 456:327.324 - 0.008ms returns 69200
TC44C 456:327.330 JLINK_GetCompileDateTime()
TC44C 456:327.335 - 0.007ms
TC44C 456:327.359 JLINK_GetFirmwareString(...)
TC44C 456:327.364 - 0.008ms
TC44C 456:327.373 JLINK_GetHardwareVersion()
TC44C 456:327.378 - 0.007ms returns 94000
TC44C 456:327.407 JLINK_GetSN()
TC44C 456:327.413 - 0.009ms returns 59400616
TC44C 456:327.436 JLINK_GetOEMString(...)
TC44C 456:327.448 JLINK_TIF_Select(JLINKARM_TIF_SWD)
TC44C 456:329.231 - 1.795ms returns 0x00
TC44C 456:329.249 JLINK_HasError()
TC44C 456:329.259 JLINK_SetSpeed(2000)
TC44C 456:329.659 - 0.410ms
TC44C 456:329.678 JLINK_GetId()
TC44C 456:331.269   Found SW-DP with ID 0x2BA01477
TC44C 456:336.483   DPIDR: 0x2BA01477
TC44C 456:336.512   Scanning AP map to find all available APs
TC44C 456:338.142   AP[1]: Stopped AP scan as end of AP map has been reached
TC44C 456:338.190   AP[0]: AHB-AP (IDR: 0x24770011)
TC44C 456:338.201   Iterating through AP map to find AHB-AP to use
TC44C 456:340.124   AP[0]: Core found
TC44C 456:340.212   AP[0]: AHB-AP ROM base: 0xE00FF000
TC44C 456:341.114   CPUID register: 0x410FC241. Implementer code: 0x41 (ARM)
TC44C 456:341.153   Found Cortex-M4 r0p1, Little endian.
TC44C 456:443.303   -- Max. mem block: 0x00010E40
TC44C 456:443.711   CPU_ReadMem(4 bytes @ 0xE000EDF0)
TC44C 456:444.426   CPU_WriteMem(4 bytes @ 0xE000EDF0)
TC44C 456:445.055   CPU_ReadMem(4 bytes @ 0xE0002000)
TC44C 456:445.681   FPUnit: 6 code (BP) slots and 2 literal slots
TC44C 456:445.692   CPU_ReadMem(4 bytes @ 0xE000EDFC)
TC44C 456:446.338   CPU_WriteMem(4 bytes @ 0xE000EDFC)
TC44C 456:447.042   CPU_ReadMem(4 bytes @ 0xE0001000)
TC44C 456:447.712   CPU_WriteMem(4 bytes @ 0xE0001000)
TC44C 456:448.454   CPU_ReadMem(4 bytes @ 0xE000ED88)
TC44C 456:449.154   CPU_WriteMem(4 bytes @ 0xE000ED88)
TC44C 456:450.043   CPU_ReadMem(4 bytes @ 0xE000ED88)
TC44C 456:450.994   CPU_WriteMem(4 bytes @ 0xE000ED88)
TC44C 456:451.790   CoreSight components:
TC44C 456:451.819   ROMTbl[0] @ E00FF000
TC44C 456:451.832   CPU_ReadMem(64 bytes @ 0xE00FF000)
TC44C 456:452.990   CPU_ReadMem(32 bytes @ 0xE000EFE0)
TC44C 456:453.842   ROMTbl[0][0]: E000E000, CID: B105E00D, PID: 000BB00C SCS-M7
TC44C 456:453.899   CPU_ReadMem(32 bytes @ 0xE0001FE0)
TC44C 456:454.861   ROMTbl[0][1]: E0001000, CID: B105E00D, PID: 003BB002 DWT
TC44C 456:454.876   CPU_ReadMem(32 bytes @ 0xE0002FE0)
TC44C 456:455.849   ROMTbl[0][2]: E0002000, CID: B105E00D, PID: 002BB003 FPB
TC44C 456:455.863   CPU_ReadMem(32 bytes @ 0xE0000FE0)
TC44C 456:456.746   ROMTbl[0][3]: E0000000, CID: B105E00D, PID: 003BB001 ITM
TC44C 456:456.772   CPU_ReadMem(32 bytes @ 0xE0040FE0)
TC44C 456:457.722   ROMTbl[0][4]: E0040000, CID: B105900D, PID: 000BB9A1 TPIU
TC44C 456:457.736   CPU_ReadMem(32 bytes @ 0xE0041FE0)
TC44C 456:458.574   ROMTbl[0][5]: E0041000, CID: 00000000, PID: 00000000 ???
TC44C 456:459.125 - 129.456ms returns 0x2BA01477
TC44C 456:459.145 JLINK_GetDLLVersion()
TC44C 456:459.150 - 0.008ms returns 69200
TC44C 456:459.157 JLINK_CORE_GetFound()
TC44C 456:459.163 - 0.008ms returns 0xE0000FF
TC44C 456:459.170 JLINK_GetDebugInfo(0x100 = JLINKARM_ROM_TABLE_ADDR_INDEX)
TC44C 456:459.177   Value=0xE00FF000
TC44C 456:459.184 - 0.016ms returns 0
TC44C 456:459.232 JLINK_GetDebugInfo(0x100 = JLINKARM_ROM_TABLE_ADDR_INDEX)
TC44C 456:459.242   Value=0xE00FF000
TC44C 456:459.249 - 0.019ms returns 0
TC44C 456:459.255 JLINK_GetDebugInfo(0x101 = JLINKARM_DEBUG_INFO_ETM_ADDR_INDEX)
TC44C 456:459.261   Value=0x00000000
TC44C 456:459.269 - 0.016ms returns 0
TC44C 456:459.276 JLINK_ReadMemEx(0xE0041FF0, 0x10 Bytes, Flags = 0x02000004)
TC44C 456:459.287   CPU_ReadMem(16 bytes @ 0xE0041FF0)
TC44C 456:460.141   Data:  00 00 00 00 00 00 00 00 00 00 00 00 00 00 00 00
TC44C 456:460.152 - 0.879ms returns 16 (0x10)
TC44C 456:460.159 JLINK_GetDebugInfo(0x102 = JLINKARM_DEBUG_INFO_MTB_ADDR_INDEX)
TC44C 456:460.165   Value=0x00000000
TC44C 456:460.172 - 0.015ms returns 0
TC44C 456:460.178 JLINK_GetDebugInfo(0x103 = JLINKARM_DEBUG_INFO_TPIU_ADDR_INDEX)
TC44C 456:460.183   Value=0xE0040000
TC44C 456:460.190 - 0.015ms returns 0
TC44C 456:460.196 JLINK_GetDebugInfo(0x104 = JLINKARM_DEBUG_INFO_ITM_ADDR_INDEX)
TC44C 456:460.202   Value=0xE0000000
TC44C 456:460.209 - 0.015ms returns 0
TC44C 456:460.215 JLINK_GetDebugInfo(0x105 = JLINKARM_DEBUG_INFO_DWT_ADDR_INDEX)
TC44C 456:460.220   Value=0xE0001000
TC44C 456:460.227 - 0.015ms returns 0
TC44C 456:460.233 JLINK_GetDebugInfo(0x106 = JLINKARM_DEBUG_INFO_FPB_ADDR_INDEX)
TC44C 456:460.239   Value=0xE0002000
TC44C 456:460.246 - 0.015ms returns 0
TC44C 456:460.252 JLINK_GetDebugInfo(0x107 = JLINKARM_DEBUG_INFO_NVIC_ADDR_INDEX)
TC44C 456:460.257   Value=0xE000E000
TC44C 456:460.265 - 0.015ms returns 0
TC44C 456:460.271 JLINK_GetDebugInfo(0x10C = JLINKARM_DEBUG_INFO_DBG_ADDR_INDEX)
TC44C 456:460.276   Value=0xE000EDF0
TC44C 456:460.283 - 0.015ms returns 0
TC44C 456:460.289 JLINK_GetDebugInfo(0x01 = Unknown)
TC44C 456:460.295   Value=0x00000001
TC44C 456:460.302 - 0.015ms returns 0
TC44C 456:460.308 JLINK_ReadMemU32(0xE000ED00, 0x1 Items)
TC44C 456:460.316   CPU_ReadMem(4 bytes @ 0xE000ED00)
TC44C 456:461.028   Data:  41 C2 0F 41
TC44C 456:461.042   Debug reg: CPUID
TC44C 456:461.049 - 0.743ms returns 1 (0x1)
TC44C 456:461.057 JLINK_GetDebugInfo(0x10F = JLINKARM_DEBUG_INFO_HAS_CORTEX_M_SECURITY_EXT_INDEX)
TC44C 456:461.064   Value=0x00000000
TC44C 456:461.074 - 0.020ms returns 0
TC44C 456:461.084 JLINK_HasError()
TC44C 456:461.093 JLINK_SetResetType(JLINKARM_CM3_RESET_TYPE_NORMAL)
TC44C 456:461.099 - 0.008ms returns JLINKARM_CM3_RESET_TYPE_NORMAL
TC44C 456:461.105 JLINK_Reset()
TC44C 456:461.117   CPU is running
TC44C 456:461.127   CPU_WriteMem(4 bytes @ 0xE000EDF0)
TC44C 456:461.820   CPU is running
TC44C 456:461.835   CPU_WriteMem(4 bytes @ 0xE000EDFC)
TC44C 456:462.528   Reset: Halt core after reset via DEMCR.VC_CORERESET.
TC44C 456:463.601   Reset: Reset device via AIRCR.SYSRESETREQ.
TC44C 456:463.617   CPU is running
TC44C 456:463.626   CPU_WriteMem(4 bytes @ 0xE000ED0C)
TC44C 456:517.416   CPU_ReadMem(4 bytes @ 0xE000EDF0)
TC44C 456:518.195   CPU_ReadMem(4 bytes @ 0xE000EDF0)
TC44C 456:519.008   CPU is running
TC44C 456:519.024   CPU_WriteMem(4 bytes @ 0xE000EDF0)
TC44C 456:519.684   CPU is running
TC44C 456:519.696   CPU_WriteMem(4 bytes @ 0xE000EDFC)
TC44C 456:526.134   CPU_ReadMem(4 bytes @ 0xE000EDF0)
TC44C 456:530.884   CPU_WriteMem(4 bytes @ 0xE0002000)
TC44C 456:531.561   CPU_ReadMem(4 bytes @ 0xE000EDFC)
TC44C 456:532.221   CPU_ReadMem(4 bytes @ 0xE0001000)
TC44C 456:532.956 - 71.863ms
TC44C 456:533.041 JLINK_HasError()
TC44C 456:533.053 JLINK_ReadReg(R15 (PC))
TC44C 456:533.066 - 0.016ms returns 0x080003F4
TC44C 456:533.074 JLINK_ReadReg(XPSR)
TC44C 456:533.080 - 0.008ms returns 0x01000000
TC44C 456:533.087 JLINK_Halt()
TC44C 456:533.092 - 0.007ms returns 0x00
TC44C 456:533.100 JLINK_ReadMemU32(0xE000EDF0, 0x1 Items)
TC44C 456:533.117   CPU_ReadMem(4 bytes @ 0xE000EDF0)
TC44C 456:533.797   Data:  03 00 03 00
TC44C 456:533.807   Debug reg: DHCSR
TC44C 456:533.815 - 0.717ms returns 1 (0x1)
TC44C 456:533.822 JLINK_WriteU32_64(0xE000EDF0, 0xA05F0003)
TC44C 456:533.828   Debug reg: DHCSR
TC44C 456:534.472   CPU_WriteMem(4 bytes @ 0xE000EDF0)
TC44C 456:535.183 - 1.365ms returns 0 (0x00000000)
TC44C 456:535.192 JLINK_WriteU32_64(0xE000EDFC, 0x01000000)
TC44C 456:535.197   Debug reg: DEMCR
TC44C 456:535.207   CPU_WriteMem(4 bytes @ 0xE000EDFC)
TC44C 456:535.940 - 0.752ms returns 0 (0x00000000)
TC44C 456:535.974 JLINK_GetHWStatus(...)
TC44C 456:536.401 - 0.433ms returns 0
TC44C 456:536.425 JLINK_GetNumBPUnits(Type = 0xFFFFFF00)
TC44C 456:536.432 - 0.009ms returns 0x06
TC44C 456:536.438 JLINK_GetNumBPUnits(Type = 0xF0)
TC44C 456:536.443 - 0.007ms returns 0x2000
TC44C 456:536.449 JLINK_GetNumWPUnits()
TC44C 456:536.454 - 0.007ms returns 4
TC44C 456:536.467 JLINK_GetSpeed()
TC44C 456:536.473 - 0.008ms returns 2000
TC44C 456:536.483 JLINK_ReadMemU32(0xE000E004, 0x1 Items)
TC44C 456:536.491   CPU_ReadMem(4 bytes @ 0xE000E004)
TC44C 456:537.147   Data:  02 00 00 00
TC44C 456:537.160 - 0.679ms returns 1 (0x1)
TC44C 456:537.167 JLINK_ReadMemU32(0xE000E004, 0x1 Items)
TC44C 456:537.176   CPU_ReadMem(4 bytes @ 0xE000E004)
TC44C 456:537.749   Data:  02 00 00 00
TC44C 456:537.759 - 0.594ms returns 1 (0x1)
TC44C 456:537.766 JLINK_WriteMemEx(0xE0001000, 0x0000001C Bytes, Flags = 0x02000004)
TC44C 456:537.772   Data:  01 00 00 00 00 00 00 00 00 00 00 00 00 00 00 00 ...
TC44C 456:537.783   CPU_WriteMem(28 bytes @ 0xE0001000)
TC44C 456:538.551 - 0.792ms returns 0x1C
TC44C 456:538.581 JLINK_HasError()
TC44C 456:538.589 JLINK_ReadReg(R15 (PC))
TC44C 456:538.596 - 0.009ms returns 0x080003F4
TC44C 456:538.602 JLINK_ReadReg(XPSR)
TC44C 456:538.608 - 0.008ms returns 0x01000000
TC44C 456:542.357 JLINK_ReadMemEx(0xE0001004, 0x4 Bytes, Flags = 0x02000000)
TC44C 456:542.380   Data:  00 00 00 00
TC44C 456:542.389   Debug reg: DWT_CYCCNT
TC44C 456:542.397 - 0.042ms returns 4 (0x4)
TC44C 456:637.337 JLINK_HasError()
TC44C 456:637.358 JLINK_SetResetType(JLINKARM_CM3_RESET_TYPE_NORMAL)
TC44C 456:637.365 - 0.009ms returns JLINKARM_CM3_RESET_TYPE_NORMAL
TC44C 456:637.371 JLINK_Reset()
TC44C 456:637.385   CPU_WriteMem(4 bytes @ 0xE000EDF0)
TC44C 456:638.075   CPU_WriteMem(4 bytes @ 0xE000EDFC)
TC44C 456:638.784   Reset: Halt core after reset via DEMCR.VC_CORERESET.
TC44C 456:639.799   Reset: Reset device via AIRCR.SYSRESETREQ.
TC44C 456:639.810   CPU_WriteMem(4 bytes @ 0xE000ED0C)
TC44C 456:693.697   CPU_ReadMem(4 bytes @ 0xE000EDF0)
TC44C 456:694.395   CPU_ReadMem(4 bytes @ 0xE000EDF0)
TC44C 456:695.041   CPU_WriteMem(4 bytes @ 0xE000EDF0)
TC44C 456:695.777   CPU_WriteMem(4 bytes @ 0xE000EDFC)
TC44C 456:701.721   CPU_ReadMem(4 bytes @ 0xE000EDF0)
TC44C 456:706.608   CPU_WriteMem(4 bytes @ 0xE0002000)
TC44C 456:707.269   CPU_ReadMem(4 bytes @ 0xE000EDFC)
TC44C 456:707.942   CPU_ReadMem(4 bytes @ 0xE0001000)
TC44C 456:708.569 - 71.203ms
TC44C 456:708.657 JLINK_HasError()
TC44C 456:708.666 JLINK_ReadReg(R15 (PC))
TC44C 456:708.674 - 0.011ms returns 0x080003F4
TC44C 456:708.680 JLINK_ReadReg(XPSR)
TC44C 456:708.686 - 0.008ms returns 0x01000000
TC44C 456:709.382 JLINK_ReadMemEx(0x080003F4, 0x3C Bytes, Flags = 0x02000000)
TC44C 456:709.403   CPU_ReadMem(60 bytes @ 0x080003F4)
TC44C 456:710.581   Data:  09 48 80 47 09 48 00 47 FE E7 FE E7 FE E7 FE E7 ...
TC44C 456:710.595 - 1.215ms returns 60 (0x3C)
TC44C 456:710.602 JLINK_ReadMemEx(0x080003F4, 0x2 Bytes, Flags = 0x02000000)
TC44C 456:710.611   CPU_ReadMem(2 bytes @ 0x080003F4)
TC44C 456:711.310   Data:  09 48
TC44C 456:711.321 - 0.720ms returns 2 (0x2)
TC44C 456:711.368 JLINK_ReadMemEx(0x080003F6, 0x2 Bytes, Flags = 0x02000000)
TC44C 456:711.376   CPU_ReadMem(2 bytes @ 0x080003F6)
TC44C 456:712.123   Data:  80 47
TC44C 456:712.137 - 0.771ms returns 2 (0x2)
TC44C 456:712.156 JLINK_ReadMemEx(0x080003F6, 0x2 Bytes, Flags = 0x02000000)
TC44C 456:712.165   CPU_ReadMem(2 bytes @ 0x080003F6)
TC44C 456:712.996   Data:  80 47
TC44C 456:713.009 - 0.855ms returns 2 (0x2)
TC44C 456:713.016 JLINK_ReadMemEx(0x080003F8, 0x3C Bytes, Flags = 0x02000000)
TC44C 456:713.025   CPU_ReadMem(60 bytes @ 0x080003F8)
TC44C 456:714.215   Data:  09 48 00 47 FE E7 FE E7 FE E7 FE E7 FE E7 FE E7 ...
TC44C 456:714.228 - 1.213ms returns 60 (0x3C)
TC44C 456:714.235 JLINK_ReadMemEx(0x080003F8, 0x2 Bytes, Flags = 0x02000000)
TC44C 456:714.244   CPU_ReadMem(2 bytes @ 0x080003F8)
TC44C 456:714.958   Data:  09 48
TC44C 456:714.973 - 0.740ms returns 2 (0x2)
TC44C 460:238.835 JLINK_HasError()
TC44C 460:238.857 JLINK_ReadReg(R0)
TC44C 460:239.566 - 0.713ms returns 0x00000000
TC44C 460:239.576 JLINK_ReadReg(R1)
TC44C 460:239.582 - 0.008ms returns 0x80000200
TC44C 460:239.588 JLINK_ReadReg(R2)
TC44C 460:239.593 - 0.007ms returns 0x00001BA8
TC44C 460:239.599 JLINK_ReadReg(R3)
TC44C 460:239.604 - 0.007ms returns 0x04C11DB7
TC44C 460:239.610 JLINK_ReadReg(R4)
TC44C 460:239.615 - 0.007ms returns 0x00000000
TC44C 460:239.621 JLINK_ReadReg(R5)
TC44C 460:239.626 - 0.007ms returns 0x00000000
TC44C 460:239.632 JLINK_ReadReg(R6)
TC44C 460:239.638 - 0.007ms returns 0x00000000
TC44C 460:239.643 JLINK_ReadReg(R7)
TC44C 460:239.649 - 0.007ms returns 0x00000000
TC44C 460:239.655 JLINK_ReadReg(R8)
TC44C 460:239.660 - 0.008ms returns 0x00000000
TC44C 460:239.666 JLINK_ReadReg(R9)
TC44C 460:239.671 - 0.007ms returns 0x200001CC
TC44C 460:239.677 JLINK_ReadReg(R10)
TC44C 460:239.682 - 0.007ms returns 0x00000000
TC44C 460:239.688 JLINK_ReadReg(R11)
TC44C 460:239.693 - 0.007ms returns 0x00000000
TC44C 460:239.699 JLINK_ReadReg(R12)
TC44C 460:239.705 - 0.008ms returns 0x00000000
TC44C 460:239.710 JLINK_ReadReg(R13 (SP))
TC44C 460:239.716 - 0.007ms returns 0x20002168
TC44C 460:239.722 JLINK_ReadReg(R14)
TC44C 460:239.727 - 0.007ms returns 0xFFFFFFFF
TC44C 460:239.733 JLINK_ReadReg(R15 (PC))
TC44C 460:239.738 - 0.008ms returns 0x080003F4
TC44C 460:239.744 JLINK_ReadReg(XPSR)
TC44C 460:239.749 - 0.008ms returns 0x01000000
TC44C 460:239.756 JLINK_ReadReg(MSP)
TC44C 460:239.761 - 0.007ms returns 0x20002168
TC44C 460:239.767 JLINK_ReadReg(PSP)
TC44C 460:239.772 - 0.007ms returns 0x20001000
TC44C 460:239.778 JLINK_ReadReg(CFBP)
TC44C 460:239.783 - 0.008ms returns 0x00000000
TC44C 460:239.789 JLINK_ReadReg(FPSCR)
TC44C 460:245.861 - 6.108ms returns 0x00000000
TC44C 460:245.902 JLINK_ReadReg(FPS0)
TC44C 460:245.908 - 0.008ms returns 0x11710D08
TC44C 460:245.914 JLINK_ReadReg(FPS1)
TC44C 460:245.919 - 0.007ms returns 0x8398831C
TC44C 460:245.925 JLINK_ReadReg(FPS2)
TC44C 460:245.930 - 0.007ms returns 0x1662F254
TC44C 460:245.936 JLINK_ReadReg(FPS3)
TC44C 460:245.941 - 0.007ms returns 0xF9200041
TC44C 460:245.947 JLINK_ReadReg(FPS4)
TC44C 460:245.952 - 0.007ms returns 0x2E04C1C0
TC44C 460:245.958 JLINK_ReadReg(FPS5)
TC44C 460:245.963 - 0.007ms returns 0xBC033140
TC44C 460:245.969 JLINK_ReadReg(FPS6)
TC44C 460:245.974 - 0.007ms returns 0x664867D0
TC44C 460:245.980 JLINK_ReadReg(FPS7)
TC44C 460:245.985 - 0.007ms returns 0x83DEF800
TC44C 460:245.990 JLINK_ReadReg(FPS8)
TC44C 460:245.995 - 0.007ms returns 0x6EA04F03
TC44C 460:246.001 JLINK_ReadReg(FPS9)
TC44C 460:246.006 - 0.007ms returns 0x080C41C6
TC44C 460:246.012 JLINK_ReadReg(FPS10)
TC44C 460:246.055 - 0.047ms returns 0x2C0C0BC9
TC44C 460:246.063 JLINK_ReadReg(FPS11)
TC44C 460:246.068 - 0.007ms returns 0x50067B00
TC44C 460:246.074 JLINK_ReadReg(FPS12)
TC44C 460:246.079 - 0.007ms returns 0xEC04180D
TC44C 460:246.085 JLINK_ReadReg(FPS13)
TC44C 460:246.090 - 0.007ms returns 0x28496403
TC44C 460:246.096 JLINK_ReadReg(FPS14)
TC44C 460:246.101 - 0.007ms returns 0x1E680200
TC44C 460:246.107 JLINK_ReadReg(FPS15)
TC44C 460:246.112 - 0.007ms returns 0x14CC7332
TC44C 460:246.117 JLINK_ReadReg(FPS16)
TC44C 460:246.122 - 0.007ms returns 0x48420128
TC44C 460:246.128 JLINK_ReadReg(FPS17)
TC44C 460:246.133 - 0.007ms returns 0x0E1A2A0E
TC44C 460:246.139 JLINK_ReadReg(FPS18)
TC44C 460:246.144 - 0.007ms returns 0x7400D000
TC44C 460:246.150 JLINK_ReadReg(FPS19)
TC44C 460:246.155 - 0.007ms returns 0x1006C04F
TC44C 460:246.161 JLINK_ReadReg(FPS20)
TC44C 460:246.166 - 0.007ms returns 0xDE286300
TC44C 460:246.172 JLINK_ReadReg(FPS21)
TC44C 460:246.177 - 0.007ms returns 0x40587202
TC44C 460:246.182 JLINK_ReadReg(FPS22)
TC44C 460:246.187 - 0.007ms returns 0x5A7E28C0
TC44C 460:246.193 JLINK_ReadReg(FPS23)
TC44C 460:246.198 - 0.007ms returns 0x94654252
TC44C 460:246.204 JLINK_ReadReg(FPS24)
TC44C 460:246.209 - 0.007ms returns 0x80283080
TC44C 460:246.215 JLINK_ReadReg(FPS25)
TC44C 460:246.220 - 0.007ms returns 0x40001536
TC44C 460:246.226 JLINK_ReadReg(FPS26)
TC44C 460:246.231 - 0.007ms returns 0xC19F0420
TC44C 460:246.237 JLINK_ReadReg(FPS27)
TC44C 460:246.242 - 0.007ms returns 0x2527C188
TC44C 460:246.247 JLINK_ReadReg(FPS28)
TC44C 460:246.252 - 0.007ms returns 0x81D5A519
TC44C 460:246.258 JLINK_ReadReg(FPS29)
TC44C 460:246.263 - 0.007ms returns 0x8EEA48C9
TC44C 460:246.269 JLINK_ReadReg(FPS30)
TC44C 460:246.274 - 0.007ms returns 0x8B96C13F
TC44C 460:246.296 JLINK_ReadReg(FPS31)
TC44C 460:246.303 - 0.009ms returns 0x4CC31A03
TAD68 460:337.761 JLINK_ReadMemEx(0x080003F4, 0x2 Bytes, Flags = 0x02000000)
TAD68 460:337.796   CPU_ReadMem(2 bytes @ 0x080003F4)
TAD68 460:338.474   Data:  09 48
TAD68 460:338.488 - 0.729ms returns 2 (0x2)
TAD68 460:338.496 JLINK_HasError()
TAD68 460:338.503 JLINK_SetBPEx(Addr = 0x080012D0, Type = 0xFFFFFFF2)
TAD68 460:338.511 - 0.010ms returns 0x00000001
TAD68 460:338.517 JLINK_HasError()
TAD68 460:338.523 JLINK_SetBPEx(Addr = 0x08007D34, Type = 0xFFFFFFF2)
TAD68 460:338.529 - 0.008ms returns 0x00000002
TAD68 460:338.535 JLINK_HasError()
TAD68 460:338.541 JLINK_SetBPEx(Addr = 0x0800E91A, Type = 0xFFFFFFF2)
TAD68 460:338.546 - 0.008ms returns 0x00000003
TAD68 460:338.552 JLINK_HasError()
TAD68 460:338.558 JLINK_HasError()
TAD68 460:338.564 JLINK_Go()
TAD68 460:338.579   CPU_WriteMem(4 bytes @ 0xE0002000)
TAD68 460:339.184   CPU_WriteMem(4 bytes @ 0xE0002000)
TAD68 460:339.876   CPU_WriteMem(4 bytes @ 0xE0002000)
TAD68 460:340.550   CPU_ReadMem(4 bytes @ 0xE0001000)
TAD68 460:341.254   CPU_WriteMem(4 bytes @ 0xE0002008)
TAD68 460:341.267   CPU_WriteMem(4 bytes @ 0xE000200C)
TAD68 460:341.274   CPU_WriteMem(4 bytes @ 0xE0002010)
TAD68 460:341.282   CPU_WriteMem(4 bytes @ 0xE0002014)
TAD68 460:341.290   CPU_WriteMem(4 bytes @ 0xE0002018)
TAD68 460:341.298   CPU_WriteMem(4 bytes @ 0xE000201C)
TAD68 460:343.217   CPU_WriteMem(4 bytes @ 0xE0001004)
TAD68 460:344.758 - 6.207ms
TAD68 460:445.174 JLINK_HasError()
TAD68 460:445.233 JLINK_IsHalted()
TAD68 460:449.446 - 4.226ms returns TRUE
TAD68 460:449.466 JLINK_HasError()
TAD68 460:449.472 JLINK_Halt()
TAD68 460:449.478 - 0.008ms returns 0x00
TAD68 460:449.484 JLINK_IsHalted()
TAD68 460:449.490 - 0.007ms returns TRUE
TAD68 460:449.496 JLINK_IsHalted()
TAD68 460:449.501 - 0.008ms returns TRUE
TAD68 460:449.507 JLINK_IsHalted()
TAD68 460:449.512 - 0.007ms returns TRUE
TAD68 460:449.519 JLINK_HasError()
TAD68 460:449.526 JLINK_ReadReg(R15 (PC))
TAD68 460:449.533 - 0.010ms returns 0x080012D0
TAD68 460:449.540 JLINK_ReadReg(XPSR)
TAD68 460:449.545 - 0.008ms returns 0x61000000
TAD68 460:449.554 JLINK_HasError()
TAD68 460:449.560 JLINK_ClrBPEx(BPHandle = 0x00000001)
TAD68 460:449.566 - 0.011ms returns 0x00
TAD68 460:449.577 JLINK_HasError()
TAD68 460:449.583 JLINK_ClrBPEx(BPHandle = 0x00000002)
TAD68 460:449.588 - 0.008ms returns 0x00
TAD68 460:449.594 JLINK_HasError()
TAD68 460:449.600 JLINK_ClrBPEx(BPHandle = 0x00000003)
TAD68 460:449.606 - 0.008ms returns 0x00
TAD68 460:449.612 JLINK_HasError()
TAD68 460:449.618 JLINK_HasError()
TAD68 460:449.624 JLINK_ReadMemU32(0xE000ED30, 0x1 Items)
TAD68 460:449.633   CPU_ReadMem(4 bytes @ 0xE000ED30)
TAD68 460:450.303   Data:  02 00 00 00
TAD68 460:450.313 - 0.691ms returns 1 (0x1)
TAD68 460:450.319 JLINK_ReadMemU32(0xE0001028, 0x1 Items)
TAD68 460:450.326   CPU_ReadMem(4 bytes @ 0xE0001028)
TAD68 460:450.969   Data:  00 00 00 00
TAD68 460:450.980   Debug reg: DWT_FUNC[0]
TAD68 460:450.987 - 0.670ms returns 1 (0x1)
TAD68 460:450.994 JLINK_ReadMemU32(0xE0001038, 0x1 Items)
TAD68 460:451.001   CPU_ReadMem(4 bytes @ 0xE0001038)
TAD68 460:451.717   Data:  00 02 00 00
TAD68 460:451.726   Debug reg: DWT_FUNC[1]
TAD68 460:451.733 - 0.742ms returns 1 (0x1)
TAD68 460:451.740 JLINK_ReadMemU32(0xE0001048, 0x1 Items)
TAD68 460:451.747   CPU_ReadMem(4 bytes @ 0xE0001048)
TAD68 460:452.367   Data:  00 00 00 00
TAD68 460:452.380   Debug reg: DWT_FUNC[2]
TAD68 460:452.387 - 0.650ms returns 1 (0x1)
TAD68 460:452.394 JLINK_ReadMemU32(0xE0001058, 0x1 Items)
TAD68 460:452.402   CPU_ReadMem(4 bytes @ 0xE0001058)
TAD68 460:453.042   Data:  00 00 00 00
TAD68 460:453.052   Debug reg: DWT_FUNC[3]
TAD68 460:453.059 - 0.666ms returns 1 (0x1)
TAD68 460:453.119 JLINK_HasError()
TAD68 460:453.127 JLINK_ReadReg(R0)
TAD68 460:453.133 - 0.009ms returns 0x20001968
TAD68 460:453.139 JLINK_ReadReg(R1)
TAD68 460:453.145 - 0.008ms returns 0x20001D68
TAD68 460:453.151 JLINK_ReadReg(R2)
TAD68 460:453.156 - 0.007ms returns 0x20001D68
TAD68 460:453.162 JLINK_ReadReg(R3)
TAD68 460:453.167 - 0.008ms returns 0x20001D68
TAD68 460:453.173 JLINK_ReadReg(R4)
TAD68 460:453.179 - 0.008ms returns 0x00000000
TAD68 460:453.185 JLINK_ReadReg(R5)
TAD68 460:453.190 - 0.008ms returns 0x20001904
TAD68 460:453.196 JLINK_ReadReg(R6)
TAD68 460:453.202 - 0.007ms returns 0x00000000
TAD68 460:453.208 JLINK_ReadReg(R7)
TAD68 460:453.213 - 0.008ms returns 0x00000000
TAD68 460:453.219 JLINK_ReadReg(R8)
TAD68 460:453.224 - 0.008ms returns 0x00000000
TAD68 460:453.230 JLINK_ReadReg(R9)
TAD68 460:453.236 - 0.008ms returns 0x200001CC
TAD68 460:453.242 JLINK_ReadReg(R10)
TAD68 460:453.247 - 0.007ms returns 0x0801195C
TAD68 460:453.253 JLINK_ReadReg(R11)
TAD68 460:453.258 - 0.008ms returns 0x00000000
TAD68 460:453.264 JLINK_ReadReg(R12)
TAD68 460:453.270 - 0.008ms returns 0x01010101
TAD68 460:453.276 JLINK_ReadReg(R13 (SP))
TAD68 460:453.281 - 0.008ms returns 0x20002168
TAD68 460:453.288 JLINK_ReadReg(R14)
TAD68 460:453.293 - 0.007ms returns 0x08000291
TAD68 460:453.299 JLINK_ReadReg(R15 (PC))
TAD68 460:453.304 - 0.008ms returns 0x080012D0
TAD68 460:453.310 JLINK_ReadReg(XPSR)
TAD68 460:453.316 - 0.008ms returns 0x61000000
TAD68 460:453.322 JLINK_ReadReg(MSP)
TAD68 460:453.327 - 0.008ms returns 0x20002168
TAD68 460:453.333 JLINK_ReadReg(PSP)
TAD68 460:453.339 - 0.007ms returns 0x20001000
TAD68 460:453.345 JLINK_ReadReg(CFBP)
TAD68 460:453.350 - 0.008ms returns 0x04000000
TAD68 460:453.357 JLINK_ReadReg(FPSCR)
TAD68 460:459.751 - 6.434ms returns 0x03000000
TAD68 460:459.798 JLINK_ReadReg(FPS0)
TAD68 460:459.806 - 0.010ms returns 0x11710D08
TAD68 460:459.812 JLINK_ReadReg(FPS1)
TAD68 460:459.817 - 0.008ms returns 0x8398831C
TAD68 460:459.823 JLINK_ReadReg(FPS2)
TAD68 460:459.828 - 0.007ms returns 0x1662F254
TAD68 460:459.835 JLINK_ReadReg(FPS3)
TAD68 460:459.840 - 0.008ms returns 0xF9200041
TAD68 460:459.846 JLINK_ReadReg(FPS4)
TAD68 460:459.852 - 0.007ms returns 0x2E04C1C0
TAD68 460:459.858 JLINK_ReadReg(FPS5)
TAD68 460:459.863 - 0.008ms returns 0xBC033140
TAD68 460:459.869 JLINK_ReadReg(FPS6)
TAD68 460:459.874 - 0.007ms returns 0x664867D0
TAD68 460:459.881 JLINK_ReadReg(FPS7)
TAD68 460:459.886 - 0.008ms returns 0x83DEF800
TAD68 460:459.892 JLINK_ReadReg(FPS8)
TAD68 460:459.903 - 0.013ms returns 0x6EA04F03
TAD68 460:459.909 JLINK_ReadReg(FPS9)
TAD68 460:459.914 - 0.008ms returns 0x080C41C6
TAD68 460:459.921 JLINK_ReadReg(FPS10)
TAD68 460:459.926 - 0.007ms returns 0x2C0C0BC9
TAD68 460:459.933 JLINK_ReadReg(FPS11)
TAD68 460:459.939 - 0.008ms returns 0x50067B00
TAD68 460:459.945 JLINK_ReadReg(FPS12)
TAD68 460:459.950 - 0.007ms returns 0xEC04180D
TAD68 460:459.956 JLINK_ReadReg(FPS13)
TAD68 460:459.961 - 0.007ms returns 0x28496403
TAD68 460:459.967 JLINK_ReadReg(FPS14)
TAD68 460:459.973 - 0.008ms returns 0x1E680200
TAD68 460:459.979 JLINK_ReadReg(FPS15)
TAD68 460:459.984 - 0.007ms returns 0x14CC7332
TAD68 460:459.990 JLINK_ReadReg(FPS16)
TAD68 460:459.995 - 0.007ms returns 0x48420128
TAD68 460:460.002 JLINK_ReadReg(FPS17)
TAD68 460:460.007 - 0.007ms returns 0x0E1A2A0E
TAD68 460:460.013 JLINK_ReadReg(FPS18)
TAD68 460:460.018 - 0.007ms returns 0x7400D000
TAD68 460:460.024 JLINK_ReadReg(FPS19)
TAD68 460:460.030 - 0.008ms returns 0x1006C04F
TAD68 460:460.036 JLINK_ReadReg(FPS20)
TAD68 460:460.041 - 0.007ms returns 0xDE286300
TAD68 460:460.047 JLINK_ReadReg(FPS21)
TAD68 460:460.052 - 0.007ms returns 0x40587202
TAD68 460:460.058 JLINK_ReadReg(FPS22)
TAD68 460:460.064 - 0.007ms returns 0x5A7E28C0
TAD68 460:460.070 JLINK_ReadReg(FPS23)
TAD68 460:460.075 - 0.008ms returns 0x94654252
TAD68 460:460.081 JLINK_ReadReg(FPS24)
TAD68 460:460.087 - 0.007ms returns 0x80283080
TAD68 460:460.092 JLINK_ReadReg(FPS25)
TAD68 460:460.099 - 0.009ms returns 0x40001536
TAD68 460:460.105 JLINK_ReadReg(FPS26)
TAD68 460:460.110 - 0.007ms returns 0xC19F0420
TAD68 460:460.117 JLINK_ReadReg(FPS27)
TAD68 460:460.122 - 0.008ms returns 0x2527C188
TAD68 460:460.128 JLINK_ReadReg(FPS28)
TAD68 460:460.133 - 0.007ms returns 0x81D5A519
TAD68 460:460.139 JLINK_ReadReg(FPS29)
TAD68 460:460.145 - 0.008ms returns 0x8EEA48C9
TAD68 460:460.151 JLINK_ReadReg(FPS30)
TAD68 460:460.156 - 0.008ms returns 0x8B96C13F
TAD68 460:460.163 JLINK_ReadReg(FPS31)
TAD68 460:460.168 - 0.007ms returns 0x4CC31A03
TC44C 460:465.116 JLINK_HasError()
TC44C 460:465.143 JLINK_ReadMemU32(0xE0001004, 0x1 Items)
TC44C 460:465.156   CPU_ReadMem(4 bytes @ 0xE0001004)
TC44C 460:465.948   Data:  11 5F 00 00
TC44C 460:465.965   Debug reg: DWT_CYCCNT
TC44C 460:465.972 - 0.831ms returns 1 (0x1)
TC44C 460:468.741 JLINK_ReadMemEx(0x080012D0, 0x3C Bytes, Flags = 0x02000000)
TC44C 460:468.763   CPU_ReadMem(128 bytes @ 0x080012C0)
TC44C 460:470.500    -- Updating DA cache (128 bytes @ 0x080012C0)
TC44C 460:470.519    -- Read from DA cache (60 bytes @ 0x080012D0)
TC44C 460:470.528   Data:  10 B5 0D F0 1F FB 00 20 10 BD 10 B5 09 F0 44 FC ...
TC44C 460:470.536 - 1.797ms returns 60 (0x3C)
TC44C 460:470.544 JLINK_ReadMemEx(0x080012D0, 0x2 Bytes, Flags = 0x02000000)
TC44C 460:470.553    -- Read from DA cache (2 bytes @ 0x080012D0)
TC44C 460:470.560   Data:  10 B5
TC44C 460:470.568 - 0.027ms returns 2 (0x2)
TC44C 460:470.577 JLINK_ReadMemEx(0x080012D2, 0x2 Bytes, Flags = 0x02000000)
TC44C 460:470.583    -- Read from DA cache (2 bytes @ 0x080012D2)
TC44C 460:470.590   Data:  0D F0
TC44C 460:470.598 - 0.023ms returns 2 (0x2)
TC44C 460:470.619 JLINK_ReadMemEx(0x080012D2, 0x2 Bytes, Flags = 0x02000000)
TC44C 460:470.625    -- Read from DA cache (2 bytes @ 0x080012D2)
TC44C 460:470.633   Data:  0D F0
TC44C 460:470.640 - 0.023ms returns 2 (0x2)
TC44C 460:470.646 JLINK_ReadMemEx(0x080012D4, 0x3C Bytes, Flags = 0x02000000)
TC44C 460:470.652    -- Read from DA cache (60 bytes @ 0x080012D4)
TC44C 460:470.660   Data:  1F FB 00 20 10 BD 10 B5 09 F0 44 FC 00 20 00 F0 ...
TC44C 460:470.667 - 0.023ms returns 60 (0x3C)
TC44C 460:470.673 JLINK_ReadMemEx(0x080012D4, 0x2 Bytes, Flags = 0x02000000)
TC44C 460:470.679    -- Read from DA cache (2 bytes @ 0x080012D4)
TC44C 460:470.686   Data:  1F FB
TC44C 460:470.694 - 0.023ms returns 2 (0x2)
TAD68 542:083.508 JLINK_ReadMemEx(0x080012D0, 0x2 Bytes, Flags = 0x02000000)
TAD68 542:083.542    -- Read from DA cache (2 bytes @ 0x080012D0)
TAD68 542:083.551   Data:  10 B5
TAD68 542:083.565 - 0.059ms returns 2 (0x2)
TAD68 542:083.572 JLINK_HasError()
TAD68 542:083.580 JLINK_SetBPEx(Addr = 0x08007D34, Type = 0xFFFFFFF2)
TAD68 542:083.587 - 0.010ms returns 0x00000004
TAD68 542:083.594 JLINK_HasError()
TAD68 542:083.600 JLINK_SetBPEx(Addr = 0x0800E91A, Type = 0xFFFFFFF2)
TAD68 542:083.606 - 0.008ms returns 0x00000005
TAD68 542:083.612 JLINK_HasError()
TAD68 542:083.618 JLINK_HasError()
TAD68 542:083.624 JLINK_Go()
TAD68 542:084.369   CPU_WriteMem(4 bytes @ 0xE0002000)
TAD68 542:085.134   CPU_WriteMem(4 bytes @ 0xE0002000)
TAD68 542:085.800   CPU_ReadMem(4 bytes @ 0xE0001000)
TAD68 542:086.452   CPU_WriteMem(4 bytes @ 0xE0002008)
TAD68 542:086.469   CPU_WriteMem(4 bytes @ 0xE000200C)
TAD68 542:086.477   CPU_WriteMem(4 bytes @ 0xE0002010)
TAD68 542:088.396 - 4.779ms
TAD68 542:189.057 JLINK_HasError()
TAD68 542:189.118 JLINK_IsHalted()
TAD68 542:193.225 - 4.116ms returns TRUE
TAD68 542:193.240 JLINK_HasError()
TAD68 542:193.246 JLINK_Halt()
TAD68 542:193.252 - 0.007ms returns 0x00
TAD68 542:193.258 JLINK_IsHalted()
TAD68 542:193.263 - 0.008ms returns TRUE
TAD68 542:193.269 JLINK_IsHalted()
TAD68 542:193.275 - 0.007ms returns TRUE
TAD68 542:193.280 JLINK_IsHalted()
TAD68 542:193.285 - 0.007ms returns TRUE
TAD68 542:193.292 JLINK_HasError()
TAD68 542:193.298 JLINK_ReadReg(R15 (PC))
TAD68 542:193.305 - 0.010ms returns 0x0800E91A
TAD68 542:193.312 JLINK_ReadReg(XPSR)
TAD68 542:193.317 - 0.008ms returns 0x61000000
TAD68 542:193.325 JLINK_HasError()
TAD68 542:193.331 JLINK_ClrBPEx(BPHandle = 0x00000004)
TAD68 542:193.337 - 0.008ms returns 0x00
TAD68 542:193.343 JLINK_HasError()
TAD68 542:193.349 JLINK_ClrBPEx(BPHandle = 0x00000005)
TAD68 542:193.354 - 0.008ms returns 0x00
TAD68 542:193.360 JLINK_HasError()
TAD68 542:193.366 JLINK_HasError()
TAD68 542:193.372 JLINK_ReadMemU32(0xE000ED30, 0x1 Items)
TAD68 542:193.381   CPU_ReadMem(4 bytes @ 0xE000ED30)
TAD68 542:194.189   Data:  02 00 00 00
TAD68 542:194.198 - 0.828ms returns 1 (0x1)
TAD68 542:194.206 JLINK_ReadMemU32(0xE0001028, 0x1 Items)
TAD68 542:194.213   CPU_ReadMem(4 bytes @ 0xE0001028)
TAD68 542:195.032   Data:  00 00 00 00
TAD68 542:195.041   Debug reg: DWT_FUNC[0]
TAD68 542:195.048 - 0.844ms returns 1 (0x1)
TAD68 542:195.056 JLINK_ReadMemU32(0xE0001038, 0x1 Items)
TAD68 542:195.062   CPU_ReadMem(4 bytes @ 0xE0001038)
TAD68 542:195.741   Data:  00 02 00 00
TAD68 542:195.751   Debug reg: DWT_FUNC[1]
TAD68 542:195.758 - 0.704ms returns 1 (0x1)
TAD68 542:195.765 JLINK_ReadMemU32(0xE0001048, 0x1 Items)
TAD68 542:195.772   CPU_ReadMem(4 bytes @ 0xE0001048)
TAD68 542:196.408   Data:  00 00 00 00
TAD68 542:196.423   Debug reg: DWT_FUNC[2]
TAD68 542:196.430 - 0.667ms returns 1 (0x1)
TAD68 542:196.439 JLINK_ReadMemU32(0xE0001058, 0x1 Items)
TAD68 542:196.448   CPU_ReadMem(4 bytes @ 0xE0001058)
TAD68 542:197.083   Data:  00 00 00 00
TAD68 542:197.095   Debug reg: DWT_FUNC[3]
TAD68 542:197.102 - 0.665ms returns 1 (0x1)
TAD68 542:197.157 JLINK_HasError()
TAD68 542:197.165 JLINK_ReadReg(R0)
TAD68 542:197.172 - 0.009ms returns 0x00000000
TAD68 542:197.178 JLINK_ReadReg(R1)
TAD68 542:197.183 - 0.007ms returns 0x20001D68
TAD68 542:197.189 JLINK_ReadReg(R2)
TAD68 542:197.194 - 0.008ms returns 0x20001D68
TAD68 542:197.200 JLINK_ReadReg(R3)
TAD68 542:197.206 - 0.007ms returns 0x20001D68
TAD68 542:197.212 JLINK_ReadReg(R4)
TAD68 542:197.217 - 0.007ms returns 0x00000000
TAD68 542:197.223 JLINK_ReadReg(R5)
TAD68 542:197.228 - 0.007ms returns 0x20001904
TAD68 542:197.234 JLINK_ReadReg(R6)
TAD68 542:197.239 - 0.008ms returns 0x00000000
TAD68 542:197.245 JLINK_ReadReg(R7)
TAD68 542:197.251 - 0.007ms returns 0x00000000
TAD68 542:197.257 JLINK_ReadReg(R8)
TAD68 542:197.262 - 0.007ms returns 0x00000000
TAD68 542:197.268 JLINK_ReadReg(R9)
TAD68 542:197.273 - 0.007ms returns 0x200001CC
TAD68 542:197.279 JLINK_ReadReg(R10)
TAD68 542:197.284 - 0.008ms returns 0x0801195C
TAD68 542:197.290 JLINK_ReadReg(R11)
TAD68 542:197.296 - 0.007ms returns 0x00000000
TAD68 542:197.302 JLINK_ReadReg(R12)
TAD68 542:197.357 - 0.058ms returns 0x01010101
TAD68 542:197.364 JLINK_ReadReg(R13 (SP))
TAD68 542:197.370 - 0.008ms returns 0x20002158
TAD68 542:197.376 JLINK_ReadReg(R14)
TAD68 542:197.381 - 0.008ms returns 0x0800E91B
TAD68 542:197.387 JLINK_ReadReg(R15 (PC))
TAD68 542:197.393 - 0.008ms returns 0x0800E91A
TAD68 542:197.398 JLINK_ReadReg(XPSR)
TAD68 542:197.404 - 0.008ms returns 0x61000000
TAD68 542:197.410 JLINK_ReadReg(MSP)
TAD68 542:197.416 - 0.007ms returns 0x20002158
TAD68 542:197.422 JLINK_ReadReg(PSP)
TAD68 542:197.427 - 0.008ms returns 0x20001000
TAD68 542:197.433 JLINK_ReadReg(CFBP)
TAD68 542:197.439 - 0.008ms returns 0x04000001
TAD68 542:197.444 JLINK_ReadReg(FPSCR)
TAD68 542:203.860 - 6.423ms returns 0x03000000
TAD68 542:203.873 JLINK_ReadReg(FPS0)
TAD68 542:203.880 - 0.008ms returns 0x11710D08
TAD68 542:203.886 JLINK_ReadReg(FPS1)
TAD68 542:203.891 - 0.008ms returns 0x8398831C
TAD68 542:203.897 JLINK_ReadReg(FPS2)
TAD68 542:203.903 - 0.008ms returns 0x1662F254
TAD68 542:203.909 JLINK_ReadReg(FPS3)
TAD68 542:203.914 - 0.007ms returns 0xF9200041
TAD68 542:203.920 JLINK_ReadReg(FPS4)
TAD68 542:203.925 - 0.007ms returns 0x2E04C1C0
TAD68 542:203.931 JLINK_ReadReg(FPS5)
TAD68 542:203.937 - 0.008ms returns 0xBC033140
TAD68 542:203.943 JLINK_ReadReg(FPS6)
TAD68 542:203.948 - 0.008ms returns 0x664867D0
TAD68 542:203.954 JLINK_ReadReg(FPS7)
TAD68 542:203.959 - 0.007ms returns 0x83DEF800
TAD68 542:203.965 JLINK_ReadReg(FPS8)
TAD68 542:203.971 - 0.007ms returns 0x6EA04F03
TAD68 542:203.976 JLINK_ReadReg(FPS9)
TAD68 542:203.982 - 0.008ms returns 0x080C41C6
TAD68 542:203.988 JLINK_ReadReg(FPS10)
TAD68 542:203.993 - 0.008ms returns 0x2C0C0BC9
TAD68 542:203.999 JLINK_ReadReg(FPS11)
TAD68 542:204.004 - 0.007ms returns 0x50067B00
TAD68 542:204.010 JLINK_ReadReg(FPS12)
TAD68 542:204.016 - 0.007ms returns 0xEC04180D
TAD68 542:204.021 JLINK_ReadReg(FPS13)
TAD68 542:204.027 - 0.008ms returns 0x28496403
TAD68 542:204.033 JLINK_ReadReg(FPS14)
TAD68 542:204.038 - 0.007ms returns 0x1E680200
TAD68 542:204.044 JLINK_ReadReg(FPS15)
TAD68 542:204.049 - 0.007ms returns 0x14CC7332
TAD68 542:204.055 JLINK_ReadReg(FPS16)
TAD68 542:204.061 - 0.007ms returns 0x48420128
TAD68 542:204.066 JLINK_ReadReg(FPS17)
TAD68 542:204.072 - 0.008ms returns 0x0E1A2A0E
TAD68 542:204.078 JLINK_ReadReg(FPS18)
TAD68 542:204.083 - 0.008ms returns 0x7400D000
TAD68 542:204.089 JLINK_ReadReg(FPS19)
TAD68 542:204.094 - 0.007ms returns 0x1006C04F
TAD68 542:204.100 JLINK_ReadReg(FPS20)
TAD68 542:204.106 - 0.007ms returns 0xDE286300
TAD68 542:204.111 JLINK_ReadReg(FPS21)
TAD68 542:204.117 - 0.008ms returns 0x40587202
TAD68 542:204.123 JLINK_ReadReg(FPS22)
TAD68 542:204.128 - 0.007ms returns 0x5A7E28C0
TAD68 542:204.134 JLINK_ReadReg(FPS23)
TAD68 542:204.139 - 0.007ms returns 0x94654252
TAD68 542:204.145 JLINK_ReadReg(FPS24)
TAD68 542:204.151 - 0.007ms returns 0x80283080
TAD68 542:204.156 JLINK_ReadReg(FPS25)
TAD68 542:204.162 - 0.008ms returns 0x40001536
TAD68 542:204.168 JLINK_ReadReg(FPS26)
TAD68 542:204.173 - 0.008ms returns 0xC19F0420
TAD68 542:204.179 JLINK_ReadReg(FPS27)
TAD68 542:204.184 - 0.007ms returns 0x2527C188
TAD68 542:204.190 JLINK_ReadReg(FPS28)
TAD68 542:204.196 - 0.007ms returns 0x81D5A519
TAD68 542:204.202 JLINK_ReadReg(FPS29)
TAD68 542:204.207 - 0.008ms returns 0x8EEA48C9
TAD68 542:204.213 JLINK_ReadReg(FPS30)
TAD68 542:204.218 - 0.008ms returns 0x8B96C13F
TAD68 542:204.224 JLINK_ReadReg(FPS31)
TAD68 542:204.229 - 0.007ms returns 0x4CC31A03
TC44C 542:204.424 JLINK_ReadMemEx(0x2000215C, 0x4 Bytes, Flags = 0x02000000)
TC44C 542:204.441   CPU_ReadMem(4 bytes @ 0x2000215C)
TC44C 542:205.101   Data:  D7 12 00 08
TC44C 542:205.111 - 0.689ms returns 4 (0x4)
TC44C 542:205.164 JLINK_ReadMemEx(0x20002158, 0x4 Bytes, Flags = 0x02000000)
TC44C 542:205.173   CPU_ReadMem(4 bytes @ 0x20002158)
TC44C 542:205.777   Data:  00 00 00 00
TC44C 542:205.789 - 0.628ms returns 4 (0x4)
TC44C 542:205.797 JLINK_ReadMemEx(0x2000215C, 0x4 Bytes, Flags = 0x02000000)
TC44C 542:205.807   CPU_ReadMem(4 bytes @ 0x2000215C)
TC44C 542:206.451   Data:  D7 12 00 08
TC44C 542:206.463 - 0.668ms returns 4 (0x4)
TC44C 542:206.472 JLINK_ReadMemEx(0x20002164, 0x4 Bytes, Flags = 0x02000000)
TC44C 542:206.480   CPU_ReadMem(4 bytes @ 0x20002164)
TC44C 542:207.123   Data:  91 02 00 08
TC44C 542:207.133 - 0.664ms returns 4 (0x4)
TC44C 542:207.145 JLINK_ReadMemEx(0x20002160, 0x4 Bytes, Flags = 0x02000000)
TC44C 542:207.153   CPU_ReadMem(4 bytes @ 0x20002160)
TC44C 542:207.810   Data:  00 00 00 00
TC44C 542:207.822 - 0.678ms returns 4 (0x4)
TC44C 542:207.829 JLINK_ReadMemEx(0x20002164, 0x4 Bytes, Flags = 0x02000000)
TC44C 542:207.837   CPU_ReadMem(4 bytes @ 0x20002164)
TC44C 542:208.510   Data:  91 02 00 08
TC44C 542:208.520 - 0.693ms returns 4 (0x4)
TC44C 542:213.077 JLINK_HasError()
TC44C 542:213.097 JLINK_ReadMemU32(0xE0001004, 0x1 Items)
TC44C 542:213.109   CPU_ReadMem(4 bytes @ 0xE0001004)
TC44C 542:213.813   Data:  20 5F 00 00
TC44C 542:213.828   Debug reg: DWT_CYCCNT
TC44C 542:213.835 - 0.741ms returns 1 (0x1)
TC44C 542:216.573 JLINK_ReadMemEx(0x0800E91A, 0x2 Bytes, Flags = 0x02000000)
TC44C 542:216.591   CPU_ReadMem(64 bytes @ 0x0800E900)
TC44C 542:217.852    -- Updating DA cache (64 bytes @ 0x0800E900)
TC44C 542:217.868    -- Read from DA cache (2 bytes @ 0x0800E91A)
TC44C 542:217.876   Data:  FB F7
TC44C 542:217.884 - 1.314ms returns 2 (0x2)
TC44C 542:217.893 JLINK_ReadMemEx(0x0800E91C, 0x3C Bytes, Flags = 0x02000000)
TC44C 542:217.902   CPU_ReadMem(64 bytes @ 0x0800E940)
TC44C 542:219.097    -- Updating DA cache (64 bytes @ 0x0800E940)
TC44C 542:219.145    -- Read from DA cache (60 bytes @ 0x0800E91C)
TC44C 542:219.153   Data:  4F FC FD F7 A1 FF FF F7 23 F8 FE F7 F9 FF FA F7 ...
TC44C 542:219.161 - 1.270ms returns 60 (0x3C)
TC44C 542:219.168 JLINK_ReadMemEx(0x0800E91C, 0x2 Bytes, Flags = 0x02000000)
TC44C 542:219.175    -- Read from DA cache (2 bytes @ 0x0800E91C)
TC44C 542:219.183   Data:  4F FC
TC44C 542:219.190 - 0.025ms returns 2 (0x2)
TAD68 543:500.801 JLINK_ReadMemEx(0x0800E91A, 0x2 Bytes, Flags = 0x02000000)
TAD68 543:500.828    -- Read from DA cache (2 bytes @ 0x0800E91A)
TAD68 543:500.836   Data:  FB F7
TAD68 543:500.844 - 0.046ms returns 2 (0x2)
TAD68 543:500.852 JLINK_HasError()
TAD68 543:500.859 JLINK_Step()
TAD68 543:501.525    -- Read from DA cache (2 bytes @ 0x0800E91A)
TAD68 543:501.544   CPU_ReadMem(4 bytes @ 0xE000ED18)
TAD68 543:502.148   CPU_WriteMem(4 bytes @ 0xE000ED18)
TAD68 543:502.811   CPU_ReadMem(4 bytes @ 0xE000ED18)
TAD68 543:503.428   CPU_WriteMem(4 bytes @ 0xE000ED18)
TAD68 543:504.129   -- Not simulated
TAD68 543:504.145   CPU_WriteMem(4 bytes @ 0xE0002008)
TAD68 543:504.153   CPU_WriteMem(4 bytes @ 0xE000200C)
TAD68 543:510.153 - 9.329ms returns 0
TAD68 543:510.195 JLINK_HasError()
TAD68 543:510.203 JLINK_ReadReg(R15 (PC))
TAD68 543:510.210 - 0.009ms returns 0x0800A1BC
TAD68 543:510.217 JLINK_ReadReg(XPSR)
TAD68 543:510.222 - 0.008ms returns 0x61000000
TAD68 543:510.260 JLINK_HasError()
TAD68 543:510.273 JLINK_SetBPEx(Addr = 0x0800E91E, Type = 0xFFFFFFF2)
TAD68 543:510.280 - 0.010ms returns 0x00000006
TAD68 543:510.287 JLINK_HasError()
TAD68 543:510.292 JLINK_SetBPEx(Addr = 0x08007D34, Type = 0xFFFFFFF2)
TAD68 543:510.298 - 0.008ms returns 0x00000007
TAD68 543:510.304 JLINK_HasError()
TAD68 543:510.310 JLINK_SetBPEx(Addr = 0x0800E91A, Type = 0xFFFFFFF2)
TAD68 543:510.316 - 0.008ms returns 0x00000008
TAD68 543:510.321 JLINK_HasError()
TAD68 543:510.327 JLINK_HasError()
TAD68 543:510.334 JLINK_Go()
TAD68 543:510.342   CPU_WriteMem(4 bytes @ 0xE0002000)
TAD68 543:511.098   CPU_WriteMem(4 bytes @ 0xE0002000)
TAD68 543:511.804   CPU_WriteMem(4 bytes @ 0xE0002000)
TAD68 543:512.528   CPU_ReadMem(4 bytes @ 0xE0001000)
TAD68 543:513.172   CPU_WriteMem(4 bytes @ 0xE0002008)
TAD68 543:513.184   CPU_WriteMem(4 bytes @ 0xE000200C)
TAD68 543:513.192   CPU_WriteMem(4 bytes @ 0xE0002010)
TAD68 543:515.169 - 4.863ms
TAD68 543:615.772 JLINK_HasError()
TAD68 543:615.837 JLINK_IsHalted()
TAD68 543:620.013 - 4.190ms returns TRUE
TAD68 543:620.035 JLINK_HasError()
TAD68 543:620.042 JLINK_Halt()
TAD68 543:620.048 - 0.008ms returns 0x00
TAD68 543:620.054 JLINK_IsHalted()
TAD68 543:620.060 - 0.008ms returns TRUE
TAD68 543:620.066 JLINK_IsHalted()
TAD68 543:620.071 - 0.007ms returns TRUE
TAD68 543:620.077 JLINK_IsHalted()
TAD68 543:620.082 - 0.007ms returns TRUE
TAD68 543:620.088 JLINK_HasError()
TAD68 543:620.094 JLINK_ReadReg(R15 (PC))
TAD68 543:620.102 - 0.010ms returns 0x0800E91E
TAD68 543:620.108 JLINK_ReadReg(XPSR)
TAD68 543:620.114 - 0.008ms returns 0x61000000
TAD68 543:620.123 JLINK_HasError()
TAD68 543:620.129 JLINK_ClrBPEx(BPHandle = 0x00000006)
TAD68 543:620.135 - 0.008ms returns 0x00
TAD68 543:620.141 JLINK_HasError()
TAD68 543:620.147 JLINK_ClrBPEx(BPHandle = 0x00000007)
TAD68 543:620.153 - 0.008ms returns 0x00
TAD68 543:620.159 JLINK_HasError()
TAD68 543:620.165 JLINK_ClrBPEx(BPHandle = 0x00000008)
TAD68 543:620.170 - 0.008ms returns 0x00
TAD68 543:620.176 JLINK_HasError()
TAD68 543:620.183 JLINK_HasError()
TAD68 543:620.188 JLINK_ReadMemU32(0xE000ED30, 0x1 Items)
TAD68 543:620.198   CPU_ReadMem(4 bytes @ 0xE000ED30)
TAD68 543:620.832   Data:  02 00 00 00
TAD68 543:620.842 - 0.656ms returns 1 (0x1)
TAD68 543:620.849 JLINK_ReadMemU32(0xE0001028, 0x1 Items)
TAD68 543:620.856   CPU_ReadMem(4 bytes @ 0xE0001028)
TAD68 543:621.606   Data:  00 00 00 00
TAD68 543:621.616   Debug reg: DWT_FUNC[0]
TAD68 543:621.623 - 0.777ms returns 1 (0x1)
TAD68 543:621.630 JLINK_ReadMemU32(0xE0001038, 0x1 Items)
TAD68 543:621.637   CPU_ReadMem(4 bytes @ 0xE0001038)
TAD68 543:622.274   Data:  00 02 00 00
TAD68 543:622.283   Debug reg: DWT_FUNC[1]
TAD68 543:622.291 - 0.663ms returns 1 (0x1)
TAD68 543:622.297 JLINK_ReadMemU32(0xE0001048, 0x1 Items)
TAD68 543:622.304   CPU_ReadMem(4 bytes @ 0xE0001048)
TAD68 543:623.007   Data:  00 00 00 00
TAD68 543:623.017   Debug reg: DWT_FUNC[2]
TAD68 543:623.024 - 0.729ms returns 1 (0x1)
TAD68 543:623.031 JLINK_ReadMemU32(0xE0001058, 0x1 Items)
TAD68 543:623.037   CPU_ReadMem(4 bytes @ 0xE0001058)
TAD68 543:623.625   Data:  00 00 00 00
TAD68 543:623.635   Debug reg: DWT_FUNC[3]
TAD68 543:623.642 - 0.614ms returns 1 (0x1)
TAD68 543:623.723 JLINK_HasError()
TAD68 543:623.732 JLINK_ReadReg(R0)
TAD68 543:623.738 - 0.008ms returns 0x00000000
TAD68 543:623.744 JLINK_ReadReg(R1)
TAD68 543:623.752 - 0.011ms returns 0x000000FF
TAD68 543:623.758 JLINK_ReadReg(R2)
TAD68 543:623.764 - 0.007ms returns 0x00000000
TAD68 543:623.769 JLINK_ReadReg(R3)
TAD68 543:623.775 - 0.008ms returns 0x20000384
TAD68 543:623.781 JLINK_ReadReg(R4)
TAD68 543:623.786 - 0.007ms returns 0x00000000
TAD68 543:623.792 JLINK_ReadReg(R5)
TAD68 543:623.797 - 0.008ms returns 0x20001904
TAD68 543:623.803 JLINK_ReadReg(R6)
TAD68 543:623.809 - 0.008ms returns 0x00000000
TAD68 543:623.815 JLINK_ReadReg(R7)
TAD68 543:623.820 - 0.008ms returns 0x00000000
TAD68 543:623.826 JLINK_ReadReg(R8)
TAD68 543:623.831 - 0.007ms returns 0x00000000
TAD68 543:623.837 JLINK_ReadReg(R9)
TAD68 543:623.842 - 0.008ms returns 0x200001CC
TAD68 543:623.848 JLINK_ReadReg(R10)
TAD68 543:623.854 - 0.007ms returns 0x0801195C
TAD68 543:623.860 JLINK_ReadReg(R11)
TAD68 543:623.865 - 0.008ms returns 0x00000000
TAD68 543:623.871 JLINK_ReadReg(R12)
TAD68 543:623.876 - 0.007ms returns 0x00000019
TAD68 543:623.882 JLINK_ReadReg(R13 (SP))
TAD68 543:623.888 - 0.008ms returns 0x20002158
TAD68 543:623.894 JLINK_ReadReg(R14)
TAD68 543:623.899 - 0.008ms returns 0x0800B131
TAD68 543:623.905 JLINK_ReadReg(R15 (PC))
TAD68 543:623.910 - 0.008ms returns 0x0800E91E
TAD68 543:623.916 JLINK_ReadReg(XPSR)
TAD68 543:623.922 - 0.007ms returns 0x61000000
TAD68 543:623.928 JLINK_ReadReg(MSP)
TAD68 543:623.933 - 0.008ms returns 0x20002158
TAD68 543:623.939 JLINK_ReadReg(PSP)
TAD68 543:623.944 - 0.008ms returns 0x20001000
TAD68 543:623.950 JLINK_ReadReg(CFBP)
TAD68 543:623.955 - 0.008ms returns 0x04000001
TAD68 543:623.962 JLINK_ReadReg(FPSCR)
TAD68 543:630.122 - 6.166ms returns 0x03000000
TAD68 543:630.133 JLINK_ReadReg(FPS0)
TAD68 543:630.142 - 0.011ms returns 0x11710D08
TAD68 543:630.148 JLINK_ReadReg(FPS1)
TAD68 543:630.153 - 0.008ms returns 0x8398831C
TAD68 543:630.159 JLINK_ReadReg(FPS2)
TAD68 543:630.164 - 0.007ms returns 0x1662F254
TAD68 543:630.170 JLINK_ReadReg(FPS3)
TAD68 543:630.176 - 0.008ms returns 0xF9200041
TAD68 543:630.182 JLINK_ReadReg(FPS4)
TAD68 543:630.187 - 0.008ms returns 0x2E04C1C0
TAD68 543:630.193 JLINK_ReadReg(FPS5)
TAD68 543:630.199 - 0.008ms returns 0xBC033140
TAD68 543:630.205 JLINK_ReadReg(FPS6)
TAD68 543:630.210 - 0.007ms returns 0x664867D0
TAD68 543:630.216 JLINK_ReadReg(FPS7)
TAD68 543:630.221 - 0.008ms returns 0x83DEF800
TAD68 543:630.227 JLINK_ReadReg(FPS8)
TAD68 543:630.233 - 0.008ms returns 0x6EA04F03
TAD68 543:630.238 JLINK_ReadReg(FPS9)
TAD68 543:630.244 - 0.008ms returns 0x080C41C6
TAD68 543:630.250 JLINK_ReadReg(FPS10)
TAD68 543:630.255 - 0.007ms returns 0x2C0C0BC9
TAD68 543:630.261 JLINK_ReadReg(FPS11)
TAD68 543:630.266 - 0.008ms returns 0x50067B00
TAD68 543:630.272 JLINK_ReadReg(FPS12)
TAD68 543:630.278 - 0.008ms returns 0xEC04180D
TAD68 543:630.283 JLINK_ReadReg(FPS13)
TAD68 543:630.289 - 0.008ms returns 0x28496403
TAD68 543:630.295 JLINK_ReadReg(FPS14)
TAD68 543:630.300 - 0.007ms returns 0x1E680200
TAD68 543:630.306 JLINK_ReadReg(FPS15)
TAD68 543:630.311 - 0.007ms returns 0x14CC7332
TAD68 543:630.317 JLINK_ReadReg(FPS16)
TAD68 543:630.322 - 0.008ms returns 0x48420128
TAD68 543:630.328 JLINK_ReadReg(FPS17)
TAD68 543:630.334 - 0.008ms returns 0x0E1A2A0E
TAD68 543:630.340 JLINK_ReadReg(FPS18)
TAD68 543:630.345 - 0.007ms returns 0x7400D000
TAD68 543:630.351 JLINK_ReadReg(FPS19)
TAD68 543:630.356 - 0.008ms returns 0x1006C04F
TAD68 543:630.362 JLINK_ReadReg(FPS20)
TAD68 543:630.368 - 0.007ms returns 0xDE286300
TAD68 543:630.373 JLINK_ReadReg(FPS21)
TAD68 543:630.379 - 0.008ms returns 0x40587202
TAD68 543:630.385 JLINK_ReadReg(FPS22)
TAD68 543:630.390 - 0.007ms returns 0x5A7E28C0
TAD68 543:630.396 JLINK_ReadReg(FPS23)
TAD68 543:630.401 - 0.008ms returns 0x94654252
TAD68 543:630.407 JLINK_ReadReg(FPS24)
TAD68 543:630.412 - 0.007ms returns 0x80283080
TAD68 543:630.418 JLINK_ReadReg(FPS25)
TAD68 543:630.423 - 0.008ms returns 0x40001536
TAD68 543:630.429 JLINK_ReadReg(FPS26)
TAD68 543:630.435 - 0.007ms returns 0xC19F0420
TAD68 543:630.441 JLINK_ReadReg(FPS27)
TAD68 543:630.446 - 0.007ms returns 0x2527C188
TAD68 543:630.452 JLINK_ReadReg(FPS28)
TAD68 543:630.457 - 0.008ms returns 0x81D5A519
TAD68 543:630.463 JLINK_ReadReg(FPS29)
TAD68 543:630.468 - 0.008ms returns 0x8EEA48C9
TAD68 543:630.474 JLINK_ReadReg(FPS30)
TAD68 543:630.479 - 0.007ms returns 0x8B96C13F
TAD68 543:630.485 JLINK_ReadReg(FPS31)
TAD68 543:630.491 - 0.008ms returns 0x4CC31A03
TC44C 543:630.692 JLINK_ReadMemEx(0x2000215C, 0x4 Bytes, Flags = 0x02000000)
TC44C 543:630.708   CPU_ReadMem(4 bytes @ 0x2000215C)
TC44C 543:631.377   Data:  D7 12 00 08
TC44C 543:631.387 - 0.697ms returns 4 (0x4)
TC44C 543:631.397 JLINK_ReadMemEx(0x20002158, 0x4 Bytes, Flags = 0x02000000)
TC44C 543:631.404   CPU_ReadMem(4 bytes @ 0x20002158)
TC44C 543:632.070   Data:  00 00 00 00
TC44C 543:632.087 - 0.693ms returns 4 (0x4)
TC44C 543:632.096 JLINK_ReadMemEx(0x2000215C, 0x4 Bytes, Flags = 0x02000000)
TC44C 543:632.108   CPU_ReadMem(4 bytes @ 0x2000215C)
TC44C 543:632.777   Data:  D7 12 00 08
TC44C 543:632.792 - 0.698ms returns 4 (0x4)
TC44C 543:632.802 JLINK_ReadMemEx(0x20002164, 0x4 Bytes, Flags = 0x02000000)
TC44C 543:632.811   CPU_ReadMem(4 bytes @ 0x20002164)
TC44C 543:633.430   Data:  91 02 00 08
TC44C 543:633.443 - 0.643ms returns 4 (0x4)
TC44C 543:633.458 JLINK_ReadMemEx(0x20002160, 0x4 Bytes, Flags = 0x02000000)
TC44C 543:633.467   CPU_ReadMem(4 bytes @ 0x20002160)
TC44C 543:634.098   Data:  00 00 00 00
TC44C 543:634.110 - 0.654ms returns 4 (0x4)
TC44C 543:634.118 JLINK_ReadMemEx(0x20002164, 0x4 Bytes, Flags = 0x02000000)
TC44C 543:634.125   CPU_ReadMem(4 bytes @ 0x20002164)
TC44C 543:634.773   Data:  91 02 00 08
TC44C 543:634.787 - 0.672ms returns 4 (0x4)
TC44C 543:634.822 JLINK_HasError()
TC44C 543:634.831 JLINK_ReadMemU32(0xE0001004, 0x1 Items)
TC44C 543:634.840   CPU_ReadMem(4 bytes @ 0xE0001004)
TC44C 543:635.428   Data:  29 D9 00 00
TC44C 543:635.440   Debug reg: DWT_CYCCNT
TC44C 543:635.448 - 0.619ms returns 1 (0x1)
TC44C 543:638.556 JLINK_ReadMemEx(0x0800E91E, 0x2 Bytes, Flags = 0x02000000)
TC44C 543:638.572   CPU_ReadMem(64 bytes @ 0x0800E900)
TC44C 543:639.806    -- Updating DA cache (64 bytes @ 0x0800E900)
TC44C 543:639.818    -- Read from DA cache (2 bytes @ 0x0800E91E)
TC44C 543:639.826   Data:  FD F7
TC44C 543:639.833 - 1.279ms returns 2 (0x2)
TC44C 543:639.840 JLINK_ReadMemEx(0x0800E920, 0x3C Bytes, Flags = 0x02000000)
TC44C 543:639.848   CPU_ReadMem(64 bytes @ 0x0800E940)
TC44C 543:640.981    -- Updating DA cache (64 bytes @ 0x0800E940)
TC44C 543:640.993    -- Read from DA cache (60 bytes @ 0x0800E920)
TC44C 543:641.001   Data:  A1 FF FF F7 23 F8 FE F7 F9 FF FA F7 ED F9 FF F7 ...
TC44C 543:641.009 - 1.171ms returns 60 (0x3C)
TC44C 543:641.016 JLINK_ReadMemEx(0x0800E920, 0x2 Bytes, Flags = 0x02000000)
TC44C 543:641.023    -- Read from DA cache (2 bytes @ 0x0800E920)
TC44C 543:641.030   Data:  A1 FF
TC44C 543:641.038 - 0.024ms returns 2 (0x2)
TAD68 544:715.496 JLINK_ReadMemEx(0x0800E91E, 0x2 Bytes, Flags = 0x02000000)
TAD68 544:715.524    -- Read from DA cache (2 bytes @ 0x0800E91E)
TAD68 544:715.533   Data:  FD F7
TAD68 544:715.541 - 0.048ms returns 2 (0x2)
TAD68 544:715.549 JLINK_HasError()
TAD68 544:715.556 JLINK_SetBPEx(Addr = 0x0800E922, Type = 0xFFFFFFF2)
TAD68 544:715.563 - 0.009ms returns 0x00000009
TAD68 544:715.569 JLINK_HasError()
TAD68 544:715.575 JLINK_SetBPEx(Addr = 0x08007D34, Type = 0xFFFFFFF2)
TAD68 544:715.581 - 0.008ms returns 0x0000000A
TAD68 544:715.587 JLINK_HasError()
TAD68 544:715.592 JLINK_SetBPEx(Addr = 0x0800E91A, Type = 0xFFFFFFF2)
